T09B4 11867:321 SEGGER J-Link V6.32i Log File (0000ms, 0787ms total)
T09B4 11867:321 DLL Compiled: Jul 24 2018 15:19:55 (0000ms, 0787ms total)
T09B4 11867:321 Logging started @ 2019-03-07 12:43 (0000ms, 0787ms total)
T09B4 11867:321 JLINK_SetWarnOutHandler(...) (0000ms, 0787ms total)
T09B4 11867:321 JLINK_OpenEx(...)
Firmware: J-Link V9 compiled Apr 20 2018 16:47:26
Hardware: V9.20
Feature(s): RDI, GDB, FlashDL, FlashBP, JFlash, RDDI
TELNET listener socket opened on port 19021WEBSRV 
Starting webserver (0015ms, 0802ms total)
T09B4 11867:321 WEBSRV Webserver running on local port 19080 (0015ms, 0802ms total)
T09B4 11867:321   returns O.K. (0015ms, 0802ms total)
T09B4 11867:336 JLINK_GetEmuCaps()  returns 0xB9FF7BBF (0000ms, 0802ms total)
T09B4 11867:337 JLINK_TIF_GetAvailable(...) (0000ms, 0802ms total)
T09B4 11867:337 JLINK_SetErrorOutHandler(...) (0000ms, 0802ms total)
T09B4 11867:337 JLINK_ExecCommand("ProjectFile = "H:\DebugRob_STM\Project\DeBug406Team\MDK-ARM\JLinkSettings.ini"", ...).   returns 0x00 (0006ms, 0808ms total)
T09B4 11867:344 JLINK_ExecCommand("Device = STM32F407ZGTx", ...). Device "STM32F407ZG" selected.  returns 0x00 (0001ms, 0809ms total)
T09B4 11867:345 JLINK_ExecCommand("DisableConnectionTimeout", ...).   returns 0x01 (0001ms, 0810ms total)
T09B4 11867:346 JLINK_GetHardwareVersion()  returns 0x16760 (0000ms, 0810ms total)
T09B4 11867:346 JLINK_GetDLLVersion()  returns 63209 (0000ms, 0810ms total)
T09B4 11867:346 JLINK_GetFirmwareString(...) (0000ms, 0810ms total)
T09B4 11867:346 JLINK_GetDLLVersion()  returns 63209 (0000ms, 0810ms total)
T09B4 11867:346 JLINK_GetCompileDateTime() (0000ms, 0810ms total)
T09B4 11867:346 JLINK_GetFirmwareString(...) (0000ms, 0810ms total)
T09B4 11867:346 JLINK_GetHardwareVersion()  returns 0x16760 (0000ms, 0810ms total)
T09B4 11867:346 JLINK_TIF_Select(JLINKARM_TIF_SWD)  returns 0x00 (0001ms, 0811ms total)
T09B4 11867:347 JLINK_SetSpeed(5000) (0000ms, 0811ms total)
T09B4 11867:347 JLINK_GetId() >0x10B TIF>Found SW-DP with ID 0x2BA01477 >0x0D TIF> >0x28 TIF> >0x0D TIF> >0x28 TIF> >0x0D TIF> >0x28 TIF> >0x0D TIF> >0x28 TIF> >0x0D TIF> >0x21 TIF> >0x0D TIF> >0x28 TIF> >0x0D TIF> >0x28 TIF> >0x0D TIF> >0x28 TIF> >0x0D TIF> >0x21 TIF> >0x0D TIF> >0x21 TIF> >0x0D TIF> >0x28 TIF> >0x0D TIF> >0x21 TIF> >0x0D TIF> >0x21 TIF> >0x0D TIF> >0x28 TIF> >0x0D TIF> >0x28 TIF> >0x0D TIF> >0x28 TIF> >0x0D TIF> >0x21 TIF> >0x0D TIF> >0x21 TIF> >0x0D TIF> >0x28 TIF> >0x0D TIF>
 >0x28 TIF> >0x0D TIF> >0x28 TIF> >0x0D TIF> >0x21 TIF> >0x0D TIF> >0x21 TIF> >0x0D TIF> >0x28 TIF> >0x0D TIF> >0x21 TIF> >0x0D TIF> >0x21 TIF> >0x0D TIF> >0x28 TIF> >0x0D TIF> >0x21 TIF> >0x0D TIF> >0x21 TIF> >0x10B TIF>Found SW-DP with ID 0x2BA01477 >0x0D TIF> >0x28 TIF> >0x0D TIF> >0x28 TIF> >0x0D TIF> >0x28 TIF> >0x0D TIF> >0x28 TIF> >0x0D TIF> >0x21 TIF> >0x0D TIF> >0x28 TIF>Scanning AP map to find all available APs >0x0D TIF> >0x28 TIF> >0x0D TIF> >0x21 TIF> >0x0D TIF> >0x21 TIF> >0x0D TIF>
 >0x28 TIF> >0x0D TIF> >0x21 TIF> >0x0D TIF> >0x21 TIF>AP[1]: Stopped AP scan as end of AP map has been reachedAP[0]: AHB-AP (IDR: 0x24770011)Iterating through AP map to find AHB-AP to use >0x42 TIF> >0x28 TIF> >0x0D TIF> >0x28 TIF> >0x0D TIF> >0x21 TIF> >0x0D TIF> >0x21 TIF> >0x42 TIF> >0x28 TIF> >0x0D TIF> >0x28 TIF> >0x0D TIF> >0x28 TIF> >0x0D TIF> >0x21 TIF> >0x0D TIF> >0x21 TIF>AP[0]: Core foundAP[0]: AHB-AP ROM base: 0xE00FF000 >0x0D TIF> >0x28 TIF> >0x0D TIF> >0x28 TIF> >0x0D TIF> >0x28 TIF>
 >0x0D TIF> >0x21 TIF> >0x0D TIF> >0x21 TIF>CPUID register: 0x410FC241. Implementer code: 0x41 (ARM)Found Cortex-M4 r0p1, Little endian. -- Max. mem block: 0x00010F28 -- CPU_ReadMem(4 bytes @ 0xE000EDF0) -- CPU_WriteMem(4 bytes @ 0xE000EDF0) -- CPU_ReadMem(4 bytes @ 0xE0002000)FPUnit: 6 code (BP) slots and 2 literal slots -- CPU_ReadMem(4 bytes @ 0xE000EDFC) -- CPU_WriteMem(4 bytes @ 0xE000EDFC) -- CPU_ReadMem(4 bytes @ 0xE0001000) -- CPU_WriteMem(4 bytes @ 0xE0001000)
 -- CPU_ReadMem(4 bytes @ 0xE000ED88) -- CPU_WriteMem(4 bytes @ 0xE000ED88) -- CPU_ReadMem(4 bytes @ 0xE000ED88) -- CPU_WriteMem(4 bytes @ 0xE000ED88)CoreSight components:ROMTbl[0] @ E00FF000 -- CPU_ReadMem(16 bytes @ 0xE00FF000) -- CPU_ReadMem(16 bytes @ 0xE000EFF0) -- CPU_ReadMem(16 bytes @ 0xE000EFE0)ROMTbl[0][0]: E000E000, CID: B105E00D, PID: 000BB00C SCS-M7 -- CPU_ReadMem(16 bytes @ 0xE0001FF0) -- CPU_ReadMem(16 bytes @ 0xE0001FE0)ROMTbl[0][1]: E0001000, CID: B105E00D, PID: 003BB002 DWT
 -- CPU_ReadMem(16 bytes @ 0xE0002FF0) -- CPU_ReadMem(16 bytes @ 0xE0002FE0)ROMTbl[0][2]: E0002000, CID: B105E00D, PID: 002BB003 FPB -- CPU_ReadMem(16 bytes @ 0xE0000FF0) -- CPU_ReadMem(16 bytes @ 0xE0000FE0)ROMTbl[0][3]: E0000000, CID: B105E00D, PID: 003BB001 ITM -- CPU_ReadMem(16 bytes @ 0xE00FF010) -- CPU_ReadMem(16 bytes @ 0xE0040FF0) -- CPU_ReadMem(16 bytes @ 0xE0040FE0)ROMTbl[0][4]: E0040000, CID: B105900D, PID: 000BB9A1 TPIU -- CPU_ReadMem(16 bytes @ 0xE0041FF0)
 -- CPU_ReadMem(16 bytes @ 0xE0041FE0)ROMTbl[0][5]: E0041000, CID: B105900D, PID: 000BB925 ETM >0x0D TIF> >0x21 TIF>  returns 0x2BA01477 (0142ms, 0953ms total)
T09B4 11867:489 JLINK_GetDLLVersion()  returns 63209 (0000ms, 0953ms total)
T09B4 11867:489 JLINK_CORE_GetFound()  returns 0xE0000FF (0000ms, 0953ms total)
T09B4 11867:489 JLINK_GetDebugInfo(0x100 = JLINKARM_ROM_TABLE_ADDR_INDEX) -- Value=0xE00FF000  returns 0x00 (0000ms, 0953ms total)
T09B4 11867:490 JLINK_GetDebugInfo(0x100 = JLINKARM_ROM_TABLE_ADDR_INDEX) -- Value=0xE00FF000  returns 0x00 (0000ms, 0954ms total)
T09B4 11867:490 JLINK_GetDebugInfo(0x101 = JLINKARM_DEBUG_INFO_ETM_ADDR_INDEX) -- Value=0xE0041000  returns 0x00 (0000ms, 0954ms total)
T09B4 11867:490 JLINK_ReadMemEx(0xE0041FD0, 0x0020 Bytes, ..., Flags = 0x02000004) -- CPU_ReadMem(32 bytes @ 0xE0041FD0) - Data: 04 00 00 00 00 00 00 00 00 00 00 00 00 00 00 00 ...  returns 0x20 (0000ms, 0954ms total)
T09B4 11867:490 JLINK_GetDebugInfo(0x102 = JLINKARM_DEBUG_INFO_MTB_ADDR_INDEX) -- Value=0x00000000  returns 0x00 (0000ms, 0954ms total)
T09B4 11867:490 JLINK_GetDebugInfo(0x103 = JLINKARM_DEBUG_INFO_TPIU_ADDR_INDEX) -- Value=0xE0040000  returns 0x00 (0000ms, 0954ms total)
T09B4 11867:490 JLINK_GetDebugInfo(0x104 = JLINKARM_DEBUG_INFO_ITM_ADDR_INDEX) -- Value=0xE0000000  returns 0x00 (0000ms, 0954ms total)
T09B4 11867:490 JLINK_GetDebugInfo(0x105 = JLINKARM_DEBUG_INFO_DWT_ADDR_INDEX) -- Value=0xE0001000  returns 0x00 (0000ms, 0954ms total)
T09B4 11867:490 JLINK_GetDebugInfo(0x106 = JLINKARM_DEBUG_INFO_FPB_ADDR_INDEX) -- Value=0xE0002000  returns 0x00 (0000ms, 0954ms total)
T09B4 11867:490 JLINK_GetDebugInfo(0x107 = JLINKARM_DEBUG_INFO_NVIC_ADDR_INDEX) -- Value=0xE000E000  returns 0x00 (0000ms, 0954ms total)
T09B4 11867:490 JLINK_GetDebugInfo(0x10C = JLINKARM_DEBUG_INFO_DBG_ADDR_INDEX) -- Value=0xE000EDF0  returns 0x00 (0000ms, 0954ms total)
T09B4 11867:490 JLINK_GetDebugInfo(0x01 = Unknown) -- Value=0x00000001  returns 0x00 (0000ms, 0954ms total)
T09B4 11867:490 JLINK_ReadMemU32(0xE000ED00, 0x0001 Items, ...) -- CPU_ReadMem(4 bytes @ 0xE000ED00) - Data: 41 C2 0F 41  returns 0x01 (0001ms, 0955ms total)
T09B4 11867:491 JLINK_GetDebugInfo(0x10F = JLINKARM_DEBUG_INFO_HAS_CORTEX_M_SECURITY_EXT_INDEX) -- Value=0x00000000  returns 0x00 (0000ms, 0955ms total)
T09B4 11867:491 JLINK_SetResetType(JLINKARM_CM3_RESET_TYPE_NORMAL)  returns JLINKARM_CM3_RESET_TYPE_NORMAL (0000ms, 0955ms total)
T09B4 11867:491 JLINK_Reset() -- CPU is running -- CPU_WriteMem(4 bytes @ 0xE000EDF0) -- CPU is running -- CPU_WriteMem(4 bytes @ 0xE000EDFC)Reset: Halt core after reset via DEMCR.VC_CORERESET. >0x35 TIF>Reset: Reset device via AIRCR.SYSRESETREQ. -- CPU is running -- CPU_WriteMem(4 bytes @ 0xE000ED0C) >0x0D TIF> >0x28 TIF> -- CPU_ReadMem(4 bytes @ 0xE000EDF0) -- CPU_ReadMem(4 bytes @ 0xE000EDF0) -- CPU is running -- CPU_WriteMem(4 bytes @ 0xE000EDF0) -- CPU is running
 -- CPU_WriteMem(4 bytes @ 0xE000EDFC) -- CPU_ReadMem(4 bytes @ 0xE000EDF0) -- CPU_WriteMem(4 bytes @ 0xE0002000) -- CPU_ReadMem(4 bytes @ 0xE000EDFC) -- CPU_ReadMem(4 bytes @ 0xE0001000) (0065ms, 1020ms total)
T09B4 11867:556 JLINK_ReadReg(R15 (PC))  returns 0x08002858 (0000ms, 1020ms total)
T09B4 11867:556 JLINK_ReadReg(XPSR)  returns 0x01000000 (0000ms, 1020ms total)
T09B4 11867:556 JLINK_Halt()  returns 0x00 (0000ms, 1020ms total)
T09B4 11867:556 JLINK_ReadMemU32(0xE000EDF0, 0x0001 Items, ...) -- CPU_ReadMem(4 bytes @ 0xE000EDF0) - Data: 03 00 03 00  returns 0x01 (0001ms, 1021ms total)
T09B4 11867:557 JLINK_WriteU32(0xE000EDF0, 0xA05F0003) -- CPU_WriteMem(4 bytes @ 0xE000EDF0)  returns 0x00 (0000ms, 1021ms total)
T09B4 11867:557 JLINK_WriteU32(0xE000EDFC, 0x01000000) -- CPU_WriteMem(4 bytes @ 0xE000EDFC)  returns 0x00 (0001ms, 1022ms total)
T09B4 11867:558 JLINK_GetHWStatus(...)  returns 0x00 (0000ms, 1022ms total)
T09B4 11867:558 JLINK_GetNumBPUnits(Type = 0xFFFFFF00)  returns 0x06 (0000ms, 1022ms total)
T09B4 11867:558 JLINK_GetNumBPUnits(Type = 0xF0)  returns 0x2000 (0000ms, 1022ms total)
T09B4 11867:558 JLINK_GetNumWPUnits()  returns 0x04 (0000ms, 1022ms total)
T09B4 11867:558 JLINK_GetSpeed()  returns 0xFA0 (0000ms, 1022ms total)
T09B4 11867:558 JLINK_ReadMemU32(0xE000E004, 0x0001 Items, ...) -- CPU_ReadMem(4 bytes @ 0xE000E004) - Data: 02 00 00 00  returns 0x01 (0000ms, 1022ms total)
T09B4 11867:558 JLINK_ReadMemU32(0xE000E004, 0x0001 Items, ...) -- CPU_ReadMem(4 bytes @ 0xE000E004) - Data: 02 00 00 00  returns 0x01 (0001ms, 1023ms total)
T09B4 11867:559 JLINK_WriteMemEx(0xE0001000, 0x001C Bytes, ..., Flags = 0x02000004) - Data: 01 00 00 00 00 00 00 00 00 00 00 00 00 00 00 00 ... -- CPU_WriteMem(28 bytes @ 0xE0001000)  returns 0x1C (0001ms, 1024ms total)
T09B4 11867:560 JLINK_ReadReg(R15 (PC))  returns 0x08002858 (0000ms, 1024ms total)
T09B4 11867:560 JLINK_ReadReg(XPSR)  returns 0x01000000 (0000ms, 1024ms total)
T09B4 11867:580 JLINK_ReadMemEx(0xE0001004, 0x0004 Bytes, ..., Flags = 0x02000000) - Data: 00 00 00 00  returns 0x04 (0000ms, 1024ms total)
T09B4 11867:659 JLINK_ReadMemEx(0x08000000, 0x1000 Bytes, ..., Flags = 0x02000000) -- CPU_ReadMem(4096 bytes @ 0x08000000) -- Updating C cache (4096 bytes @ 0x08000000) -- Read from C cache (4096 bytes @ 0x08000000) - Data: 18 05 00 20 59 28 00 08 AD 03 00 08 AF 03 00 08 ...  returns 0x1000 (0018ms, 1042ms total)
T09B4 11867:678 JLINK_ReadMemEx(0x08001000, 0x1000 Bytes, ..., Flags = 0x02000000) -- CPU_ReadMem(4096 bytes @ 0x08001000) -- Updating C cache (4096 bytes @ 0x08001000) -- Read from C cache (4096 bytes @ 0x08001000) - Data: D2 FF 20 89 40 F0 07 00 20 81 BD E8 F0 81 30 B5 ...  returns 0x1000 (0017ms, 1059ms total)
T09B4 11867:695 JLINK_ReadMemEx(0x08002000, 0x1000 Bytes, ..., Flags = 0x02000000) -- CPU_ReadMem(4096 bytes @ 0x08002000) -- Updating C cache (4096 bytes @ 0x08002000) -- Read from C cache (4096 bytes @ 0x08002000) - Data: 1B 1D 1A 60 70 47 39 B1 83 4A 0C 32 12 68 02 43 ...  returns 0x1000 (0017ms, 1076ms total)
T09B4 11867:712 JLINK_ReadMemEx(0x08003000, 0x1000 Bytes, ..., Flags = 0x02000000) -- CPU_ReadMem(4096 bytes @ 0x08003000) -- Updating C cache (4096 bytes @ 0x08003000) -- Read from C cache (4096 bytes @ 0x08003000) - Data: 04 50 07 90 07 A9 83 48 FF F7 8E F9 FC 20 07 90 ...  returns 0x1000 (0017ms, 1093ms total)
T09B4 11867:730 JLINK_ReadMemEx(0x08004000, 0x080C Bytes, ..., Flags = 0x02000000) -- CPU_ReadMem(2112 bytes @ 0x08004000) -- Updating C cache (2112 bytes @ 0x08004000) -- Read from C cache (2060 bytes @ 0x08004000) - Data: 01 E0 92 18 5B 41 B8 F1 00 0F 03 DA 00 20 01 46 ...  returns 0x80C (0009ms, 1102ms total)
T09B4 11867:792 JLINK_SetResetType(JLINKARM_CM3_RESET_TYPE_NORMAL)  returns JLINKARM_CM3_RESET_TYPE_NORMAL (0000ms, 1102ms total)
T09B4 11867:792 JLINK_Reset() -- CPU_WriteMem(4 bytes @ 0xE000EDF0) -- CPU_WriteMem(4 bytes @ 0xE000EDFC)Reset: Halt core after reset via DEMCR.VC_CORERESET. >0x35 TIF>Reset: Reset device via AIRCR.SYSRESETREQ. -- CPU_WriteMem(4 bytes @ 0xE000ED0C) >0x0D TIF> >0x28 TIF> -- CPU_ReadMem(4 bytes @ 0xE000EDF0) -- CPU_ReadMem(4 bytes @ 0xE000EDF0) -- CPU_WriteMem(4 bytes @ 0xE000EDF0) -- CPU_WriteMem(4 bytes @ 0xE000EDFC) -- CPU_ReadMem(4 bytes @ 0xE000EDF0) -- CPU_WriteMem(4 bytes @ 0xE0002000)
 -- CPU_ReadMem(4 bytes @ 0xE000EDFC) -- CPU_ReadMem(4 bytes @ 0xE0001000) (0066ms, 1168ms total)
T09B4 11867:858 JLINK_ReadReg(R15 (PC))  returns 0x08002858 (0000ms, 1168ms total)
T09B4 11867:858 JLINK_ReadReg(XPSR)  returns 0x01000000 (0000ms, 1168ms total)
T09B4 11867:858 JLINK_ReadReg(R0)  returns 0x00000000 (0000ms, 1168ms total)
T09B4 11867:858 JLINK_ReadReg(R1)  returns 0x00000000 (0000ms, 1168ms total)
T09B4 11867:858 JLINK_ReadReg(R2)  returns 0x00000000 (0000ms, 1168ms total)
T09B4 11867:858 JLINK_ReadReg(R3)  returns 0x00000000 (0000ms, 1168ms total)
T09B4 11867:858 JLINK_ReadReg(R4)  returns 0x00000000 (0000ms, 1168ms total)
T09B4 11867:858 JLINK_ReadReg(R5)  returns 0x00000000 (0000ms, 1168ms total)
T09B4 11867:858 JLINK_ReadReg(R6)  returns 0x00000000 (0000ms, 1168ms total)
T09B4 11867:858 JLINK_ReadReg(R7)  returns 0x00000000 (0000ms, 1168ms total)
T09B4 11867:858 JLINK_ReadReg(R8)  returns 0x00000000 (0000ms, 1168ms total)
T09B4 11867:858 JLINK_ReadReg(R9)  returns 0x00000000 (0000ms, 1168ms total)
T09B4 11867:858 JLINK_ReadReg(R10)  returns 0x00000000 (0000ms, 1168ms total)
T09B4 11867:858 JLINK_ReadReg(R11)  returns 0x00000000 (0000ms, 1168ms total)
T09B4 11867:858 JLINK_ReadReg(R12)  returns 0x00000000 (0000ms, 1168ms total)
T09B4 11867:858 JLINK_ReadReg(R13 (SP))  returns 0x20000518 (0000ms, 1168ms total)
T09B4 11867:858 JLINK_ReadReg(R14)  returns 0xFFFFFFFF (0000ms, 1168ms total)
T09B4 11867:858 JLINK_ReadReg(R15 (PC))  returns 0x08002858 (0000ms, 1168ms total)
T09B4 11867:858 JLINK_ReadReg(XPSR)  returns 0x01000000 (0000ms, 1168ms total)
T09B4 11867:858 JLINK_ReadReg(MSP)  returns 0x20000518 (0000ms, 1168ms total)
T09B4 11867:858 JLINK_ReadReg(PSP)  returns 0x00000000 (0000ms, 1168ms total)
T09B4 11867:858 JLINK_ReadReg(CFBP)  returns 0x00000000 (0000ms, 1168ms total)
T09B4 11867:858 JLINK_ReadReg(FPSCR)  returns 0x00000000 (0003ms, 1171ms total)
T09B4 11867:861 JLINK_ReadReg(FPS0)  returns 0x00000000 (0000ms, 1171ms total)
T09B4 11867:861 JLINK_ReadReg(FPS1)  returns 0x00000000 (0000ms, 1171ms total)
T09B4 11867:861 JLINK_ReadReg(FPS2)  returns 0x00000000 (0000ms, 1171ms total)
T09B4 11867:861 JLINK_ReadReg(FPS3)  returns 0x00000000 (0000ms, 1171ms total)
T09B4 11867:861 JLINK_ReadReg(FPS4)  returns 0x00000000 (0000ms, 1171ms total)
T09B4 11867:861 JLINK_ReadReg(FPS5)  returns 0x00000000 (0000ms, 1171ms total)
T09B4 11867:861 JLINK_ReadReg(FPS6)  returns 0x00000000 (0000ms, 1171ms total)
T09B4 11867:861 JLINK_ReadReg(FPS7)  returns 0x00000000 (0000ms, 1171ms total)
T09B4 11867:861 JLINK_ReadReg(FPS8)  returns 0x00000000 (0000ms, 1171ms total)
T09B4 11867:861 JLINK_ReadReg(FPS9)  returns 0x00000000 (0000ms, 1171ms total)
T09B4 11867:861 JLINK_ReadReg(FPS10)  returns 0x00000000 (0000ms, 1171ms total)
T09B4 11867:861 JLINK_ReadReg(FPS11)  returns 0x00000000 (0000ms, 1171ms total)
T09B4 11867:861 JLINK_ReadReg(FPS12)  returns 0x00000000 (0001ms, 1172ms total)
T09B4 11867:862 JLINK_ReadReg(FPS13)  returns 0x00000000 (0000ms, 1172ms total)
T09B4 11867:862 JLINK_ReadReg(FPS14)  returns 0x00000000 (0000ms, 1172ms total)
T09B4 11867:862 JLINK_ReadReg(FPS15)  returns 0x00000000 (0000ms, 1172ms total)
T09B4 11867:862 JLINK_ReadReg(FPS16)  returns 0x00000000 (0000ms, 1172ms total)
T09B4 11867:862 JLINK_ReadReg(FPS17)  returns 0x00000000 (0000ms, 1172ms total)
T09B4 11867:862 JLINK_ReadReg(FPS18)  returns 0x00000000 (0000ms, 1172ms total)
T09B4 11867:862 JLINK_ReadReg(FPS19)  returns 0x00000000 (0000ms, 1172ms total)
T09B4 11867:862 JLINK_ReadReg(FPS20)  returns 0x00000000 (0000ms, 1172ms total)
T09B4 11867:862 JLINK_ReadReg(FPS21)  returns 0x00000000 (0000ms, 1172ms total)
T09B4 11867:862 JLINK_ReadReg(FPS22)  returns 0x00000000 (0000ms, 1172ms total)
T09B4 11867:862 JLINK_ReadReg(FPS23)  returns 0x00000000 (0000ms, 1172ms total)
T09B4 11867:862 JLINK_ReadReg(FPS24)  returns 0x00000000 (0000ms, 1172ms total)
T09B4 11867:862 JLINK_ReadReg(FPS25)  returns 0x00000000 (0000ms, 1172ms total)
T09B4 11867:862 JLINK_ReadReg(FPS26)  returns 0x00000000 (0000ms, 1172ms total)
T09B4 11867:862 JLINK_ReadReg(FPS27)  returns 0x00000000 (0000ms, 1172ms total)
T09B4 11867:862 JLINK_ReadReg(FPS28)  returns 0x00000000 (0000ms, 1172ms total)
T09B4 11867:862 JLINK_ReadReg(FPS29)  returns 0x00000000 (0000ms, 1172ms total)
T09B4 11867:862 JLINK_ReadReg(FPS30)  returns 0x00000000 (0000ms, 1172ms total)
T09B4 11867:862 JLINK_ReadReg(FPS31)  returns 0x00000000 (0000ms, 1172ms total)
T09B4 11867:862 JLINK_ReadMemU32(0xE0001004, 0x0001 Items, ...) - Data: 00 00 00 00  returns 0x01 (0000ms, 1172ms total)
T09B4 11868:076 JLINK_ReadMemEx(0x08002758, 0x003C Bytes, ..., Flags = 0x02000000) -- CPU_ReadMem(128 bytes @ 0x08002740) -- Updating C cache (128 bytes @ 0x08002740) -- Read from C cache (60 bytes @ 0x08002758) - Data: 30 BD 02 46 3A 4B 9A 42 02 D2 35 48 10 38 01 E0 ...  returns 0x3C (0001ms, 1173ms total)
T09B4 11868:077 JLINK_ReadMemEx(0x08002794, 0x003C Bytes, ..., Flags = 0x02000000) -- CPU_ReadMem(64 bytes @ 0x080027C0) -- Updating C cache (64 bytes @ 0x080027C0) -- Read from C cache (60 bytes @ 0x08002794) - Data: 03 E0 43 69 23 F0 80 03 43 61 80 29 0B D0 2A B1 ...  returns 0x3C (0001ms, 1174ms total)
T09B4 11868:078 JLINK_ReadMemEx(0x080027D0, 0x0030 Bytes, ..., Flags = 0x02000000) -- Read from C cache (48 bytes @ 0x080027D0) - Data: 01 E0 1D 4B 10 3B 1F 4E 0E 40 36 B1 1E 26 06 EA ...  returns 0x30 (0000ms, 1174ms total)
T09B4 11868:078 JLINK_ReadMemEx(0x08002800, 0x000C Bytes, ..., Flags = 0x02000000) -- CPU_ReadMem(64 bytes @ 0x08002800) -- Updating C cache (64 bytes @ 0x08002800) -- Read from C cache (12 bytes @ 0x08002800) - Data: 04 EA 01 06 16 B1 0D B1 01 20 00 E0  returns 0x0C (0000ms, 1174ms total)
T09B4 11868:078 JLINK_ReadMemEx(0x0800280C, 0x003C Bytes, ..., Flags = 0x02000000) -- CPU_ReadMem(64 bytes @ 0x08002840) -- Updating C cache (64 bytes @ 0x08002840) -- Read from C cache (60 bytes @ 0x0800280C) - Data: 00 20 70 BD 02 46 0D 4B 9A 42 02 D2 07 48 10 38 ...  returns 0x3C (0001ms, 1175ms total)
T09B4 11868:079 JLINK_ReadMemEx(0x08002856, 0x0002 Bytes, ..., Flags = 0x02000000) -- Read from C cache (2 bytes @ 0x08002856) - Data: 3C 0F  returns 0x02 (0000ms, 1175ms total)
T09B4 11868:079 JLINK_ReadMemEx(0x08002858, 0x003C Bytes, ..., Flags = 0x02000000) -- CPU_ReadMem(64 bytes @ 0x08002880) -- Updating C cache (64 bytes @ 0x08002880) -- Read from C cache (60 bytes @ 0x08002858) - Data: 06 48 80 47 06 48 00 47 FE E7 FE E7 FE E7 FE E7 ...  returns 0x3C (0001ms, 1176ms total)
T09B4 11869:694 JLINK_ReadMemEx(0x08000454, 0x003C Bytes, ..., Flags = 0x02000000) -- CPU_ReadMem(128 bytes @ 0x08000440) -- Updating C cache (128 bytes @ 0x08000440) -- Read from C cache (60 bytes @ 0x08000454) - Data: 02 F0 1F FC 4F F4 7A 70 02 F0 EF FA F6 E7 00 00 ...  returns 0x3C (0001ms, 1177ms total)
T1AB0 11870:155 JLINK_ReadMemEx(0x08002858, 0x0002 Bytes, ..., Flags = 0x02000000) -- Read from C cache (2 bytes @ 0x08002858) - Data: 06 48  returns 0x02 (0000ms, 1177ms total)
T1AB0 11870:155 JLINK_SetBPEx(Addr = 0x08000428, Type = 0xFFFFFFF2)  returns 0x00000001 (0000ms, 1177ms total)
T1AB0 11870:155 JLINK_SetBPEx(Addr = 0x080003FE, Type = 0xFFFFFFF2)  returns 0x00000002 (0000ms, 1177ms total)
T1AB0 11870:155 JLINK_Go() -- CPU_WriteMem(4 bytes @ 0xE0002000) -- CPU_WriteMem(4 bytes @ 0xE0002000) -- CPU_ReadMem(4 bytes @ 0xE0001000) -- CPU_WriteMem(4 bytes @ 0xE0002008) -- CPU_WriteMem(4 bytes @ 0xE000200C) -- CPU_WriteMem(4 bytes @ 0xE0002010) -- CPU_WriteMem(4 bytes @ 0xE0002014) -- CPU_WriteMem(4 bytes @ 0xE0002018) -- CPU_WriteMem(4 bytes @ 0xE000201C) -- CPU_WriteMem(4 bytes @ 0xE0001004) (0004ms, 1181ms total)
T1AB0 11870:260 JLINK_IsHalted()  returns TRUE (0002ms, 1183ms total)
T1AB0 11870:262 JLINK_Halt()  returns 0x00 (0000ms, 1181ms total)
T1AB0 11870:262 JLINK_IsHalted()  returns TRUE (0000ms, 1181ms total)
T1AB0 11870:262 JLINK_IsHalted()  returns TRUE (0000ms, 1181ms total)
T1AB0 11870:262 JLINK_IsHalted()  returns TRUE (0000ms, 1181ms total)
T1AB0 11870:262 JLINK_ReadReg(R15 (PC))  returns 0x08000428 (0000ms, 1181ms total)
T1AB0 11870:262 JLINK_ReadReg(XPSR)  returns 0x61000000 (0000ms, 1181ms total)
T1AB0 11870:262 JLINK_ClrBPEx(BPHandle = 0x00000001)  returns 0x00 (0000ms, 1181ms total)
T1AB0 11870:262 JLINK_ClrBPEx(BPHandle = 0x00000002)  returns 0x00 (0000ms, 1181ms total)
T1AB0 11870:262 JLINK_ReadMemU32(0xE000ED30, 0x0001 Items, ...) -- CPU_ReadMem(4 bytes @ 0xE000ED30) - Data: 02 00 00 00  returns 0x01 (0000ms, 1181ms total)
T1AB0 11870:262 JLINK_ReadMemU32(0xE0001028, 0x0001 Items, ...) -- CPU_ReadMem(4 bytes @ 0xE0001028) - Data: 00 00 00 00  returns 0x01 (0001ms, 1182ms total)
T1AB0 11870:263 JLINK_ReadMemU32(0xE0001038, 0x0001 Items, ...) -- CPU_ReadMem(4 bytes @ 0xE0001038) - Data: 00 02 00 00  returns 0x01 (0000ms, 1182ms total)
T1AB0 11870:263 JLINK_ReadMemU32(0xE0001048, 0x0001 Items, ...) -- CPU_ReadMem(4 bytes @ 0xE0001048) - Data: 00 00 00 00  returns 0x01 (0000ms, 1182ms total)
T1AB0 11870:263 JLINK_ReadMemU32(0xE0001058, 0x0001 Items, ...) -- CPU_ReadMem(4 bytes @ 0xE0001058) - Data: 00 00 00 00  returns 0x01 (0001ms, 1183ms total)
T1AB0 11870:264 JLINK_ReadReg(R0)  returns 0x08000429 (0000ms, 1183ms total)
T1AB0 11870:264 JLINK_ReadReg(R1)  returns 0x20000518 (0000ms, 1183ms total)
T1AB0 11870:264 JLINK_ReadReg(R2)  returns 0x00000000 (0000ms, 1183ms total)
T1AB0 11870:264 JLINK_ReadReg(R3)  returns 0x08004669 (0000ms, 1183ms total)
T1AB0 11870:264 JLINK_ReadReg(R4)  returns 0x08004778 (0000ms, 1183ms total)
T1AB0 11870:264 JLINK_ReadReg(R5)  returns 0x08004778 (0000ms, 1183ms total)
T1AB0 11870:264 JLINK_ReadReg(R6)  returns 0x00000000 (0000ms, 1183ms total)
T1AB0 11870:264 JLINK_ReadReg(R7)  returns 0x00000000 (0000ms, 1183ms total)
T1AB0 11870:264 JLINK_ReadReg(R8)  returns 0x00000000 (0000ms, 1183ms total)
T1AB0 11870:264 JLINK_ReadReg(R9)  returns 0x00000000 (0000ms, 1183ms total)
T1AB0 11870:264 JLINK_ReadReg(R10)  returns 0x00000000 (0000ms, 1183ms total)
T1AB0 11870:264 JLINK_ReadReg(R11)  returns 0x00000000 (0000ms, 1183ms total)
T1AB0 11870:264 JLINK_ReadReg(R12)  returns 0x00000000 (0000ms, 1183ms total)
T1AB0 11870:264 JLINK_ReadReg(R13 (SP))  returns 0x20000518 (0000ms, 1183ms total)
T1AB0 11870:264 JLINK_ReadReg(R14)  returns 0x0800439D (0000ms, 1183ms total)
T1AB0 11870:264 JLINK_ReadReg(R15 (PC))  returns 0x08000428 (0000ms, 1183ms total)
T1AB0 11870:264 JLINK_ReadReg(XPSR)  returns 0x61000000 (0000ms, 1183ms total)
T1AB0 11870:264 JLINK_ReadReg(MSP)  returns 0x20000518 (0000ms, 1183ms total)
T1AB0 11870:264 JLINK_ReadReg(PSP)  returns 0x00000000 (0000ms, 1183ms total)
T1AB0 11870:264 JLINK_ReadReg(CFBP)  returns 0x00000000 (0000ms, 1183ms total)
T1AB0 11870:264 JLINK_ReadReg(FPSCR)  returns 0x00000000 (0004ms, 1187ms total)
T1AB0 11870:268 JLINK_ReadReg(FPS0)  returns 0x00000000 (0000ms, 1187ms total)
T1AB0 11870:268 JLINK_ReadReg(FPS1)  returns 0x00000000 (0000ms, 1187ms total)
T1AB0 11870:268 JLINK_ReadReg(FPS2)  returns 0x00000000 (0000ms, 1187ms total)
T1AB0 11870:268 JLINK_ReadReg(FPS3)  returns 0x00000000 (0000ms, 1187ms total)
T1AB0 11870:268 JLINK_ReadReg(FPS4)  returns 0x00000000 (0000ms, 1187ms total)
T1AB0 11870:268 JLINK_ReadReg(FPS5)  returns 0x00000000 (0000ms, 1187ms total)
T1AB0 11870:268 JLINK_ReadReg(FPS6)  returns 0x00000000 (0000ms, 1187ms total)
T1AB0 11870:268 JLINK_ReadReg(FPS7)  returns 0x00000000 (0000ms, 1187ms total)
T1AB0 11870:268 JLINK_ReadReg(FPS8)  returns 0x00000000 (0000ms, 1187ms total)
T1AB0 11870:268 JLINK_ReadReg(FPS9)  returns 0x00000000 (0000ms, 1187ms total)
T1AB0 11870:268 JLINK_ReadReg(FPS10)  returns 0x00000000 (0000ms, 1187ms total)
T1AB0 11870:268 JLINK_ReadReg(FPS11)  returns 0x00000000 (0000ms, 1187ms total)
T1AB0 11870:268 JLINK_ReadReg(FPS12)  returns 0x00000000 (0000ms, 1187ms total)
T1AB0 11870:268 JLINK_ReadReg(FPS13)  returns 0x00000000 (0000ms, 1187ms total)
T1AB0 11870:268 JLINK_ReadReg(FPS14)  returns 0x00000000 (0000ms, 1187ms total)
T1AB0 11870:268 JLINK_ReadReg(FPS15)  returns 0x00000000 (0000ms, 1187ms total)
T1AB0 11870:268 JLINK_ReadReg(FPS16)  returns 0x00000000 (0000ms, 1187ms total)
T1AB0 11870:268 JLINK_ReadReg(FPS17)  returns 0x00000000 (0000ms, 1187ms total)
T1AB0 11870:268 JLINK_ReadReg(FPS18)  returns 0x00000000 (0000ms, 1187ms total)
T1AB0 11870:268 JLINK_ReadReg(FPS19)  returns 0x00000000 (0000ms, 1187ms total)
T1AB0 11870:268 JLINK_ReadReg(FPS20)  returns 0x00000000 (0000ms, 1187ms total)
T1AB0 11870:268 JLINK_ReadReg(FPS21)  returns 0x00000000 (0000ms, 1187ms total)
T1AB0 11870:268 JLINK_ReadReg(FPS22)  returns 0x00000000 (0000ms, 1187ms total)
T1AB0 11870:268 JLINK_ReadReg(FPS23)  returns 0x00000000 (0000ms, 1187ms total)
T1AB0 11870:268 JLINK_ReadReg(FPS24)  returns 0x00000000 (0000ms, 1187ms total)
T1AB0 11870:268 JLINK_ReadReg(FPS25)  returns 0x00000000 (0000ms, 1187ms total)
T1AB0 11870:268 JLINK_ReadReg(FPS26)  returns 0x00000000 (0000ms, 1187ms total)
T1AB0 11870:268 JLINK_ReadReg(FPS27)  returns 0x00000000 (0000ms, 1187ms total)
T1AB0 11870:268 JLINK_ReadReg(FPS28)  returns 0x00000000 (0000ms, 1187ms total)
T1AB0 11870:268 JLINK_ReadReg(FPS29)  returns 0x00000000 (0000ms, 1187ms total)
T1AB0 11870:268 JLINK_ReadReg(FPS30)  returns 0x00000000 (0000ms, 1187ms total)
T1AB0 11870:268 JLINK_ReadReg(FPS31)  returns 0x00000000 (0000ms, 1187ms total)
T09B4 11870:274 JLINK_ReadMemU32(0xE0001004, 0x0001 Items, ...) -- CPU_ReadMem(4 bytes @ 0xE0001004) - Data: 7B 1B 00 00  returns 0x01 (0000ms, 1188ms total)
T09B4 11870:278 JLINK_ReadMemEx(0x08000328, 0x003C Bytes, ..., Flags = 0x02000000) -- CPU_ReadMem(128 bytes @ 0x08000300) -- Updating C cache (128 bytes @ 0x08000300) -- Read from C cache (60 bytes @ 0x08000328) - Data: 05 FB 06 F2 09 E0 1B 4D B5 FB F1 F5 12 4E 36 1D ...  returns 0x3C (0001ms, 1189ms total)
T09B4 11870:279 JLINK_ReadMemEx(0x08000364, 0x003C Bytes, ..., Flags = 0x02000000) -- CPU_ReadMem(64 bytes @ 0x08000380) -- Updating C cache (64 bytes @ 0x08000380) -- Read from C cache (60 bytes @ 0x08000364) - Data: 06 4D 08 35 2D 68 C5 F3 03 15 0E 4E 70 5D 0B 4D ...  returns 0x3C (0000ms, 1189ms total)
T09B4 11870:279 JLINK_ReadMemEx(0x080003AC, 0x003C Bytes, ..., Flags = 0x02000000) -- CPU_ReadMem(64 bytes @ 0x080003C0) -- Updating C cache (64 bytes @ 0x080003C0) -- Read from C cache (60 bytes @ 0x080003AC) - Data: 70 47 00 BF FE E7 00 BF FE E7 00 BF FE E7 00 BF ...  returns 0x3C (0001ms, 1190ms total)
T09B4 11870:280 JLINK_ReadMemEx(0x080003E8, 0x0018 Bytes, ..., Flags = 0x02000000) -- Read from C cache (24 bytes @ 0x080003E8) - Data: 61 F8 10 BD 10 B5 04 F0 A7 F8 10 BD 10 B5 04 F0 ...  returns 0x18 (0000ms, 1190ms total)
T09B4 11870:280 JLINK_ReadMemEx(0x08000400, 0x0024 Bytes, ..., Flags = 0x02000000) -- CPU_ReadMem(64 bytes @ 0x08000400) -- Updating C cache (64 bytes @ 0x08000400) -- Read from C cache (36 bytes @ 0x08000400) - Data: 07 48 02 F0 DB F9 40 B1 04 49 05 48 02 F0 A5 F9 ...  returns 0x24 (0001ms, 1191ms total)
T09B4 11870:281 JLINK_ReadMemEx(0x08000426, 0x0002 Bytes, ..., Flags = 0x02000000) -- Read from C cache (2 bytes @ 0x08000426) - Data: 01 40  returns 0x02 (0000ms, 1191ms total)
T09B4 11870:281 JLINK_ReadMemEx(0x08000428, 0x003C Bytes, ..., Flags = 0x02000000) -- CPU_ReadMem(64 bytes @ 0x08000440) -- Updating C cache (64 bytes @ 0x08000440) -- Read from C cache (60 bytes @ 0x08000428) - Data: 02 F0 E8 FA 02 F0 2A FA 02 F0 4C FA 02 F0 47 FB ...  returns 0x3C (0000ms, 1191ms total)
T1AB0 11890:603 JLINK_ReadMemEx(0x08000428, 0x0002 Bytes, ..., Flags = 0x02000000) -- Read from C cache (2 bytes @ 0x08000428) - Data: 02 F0  returns 0x02 (0000ms, 1191ms total)
T1AB0 11890:603 JLINK_Step() -- Read from C cache (2 bytes @ 0x08000428) -- CPU_ReadMem(4 bytes @ 0xE000ED18) -- CPU_WriteMem(4 bytes @ 0xE000ED18) -- CPU_ReadMem(4 bytes @ 0xE000ED18) -- CPU_WriteMem(4 bytes @ 0xE000ED18) -- Read from C cache (2 bytes @ 0x0800042A) -- Simulated  returns 0x00 (0002ms, 1193ms total)
T1AB0 11890:605 JLINK_ReadReg(R15 (PC))  returns 0x080029FC (0000ms, 1193ms total)
T1AB0 11890:605 JLINK_ReadReg(XPSR)  returns 0x61000000 (0000ms, 1193ms total)
T1AB0 11890:605 JLINK_ReadReg(R0)  returns 0x08000429 (0000ms, 1193ms total)
T1AB0 11890:605 JLINK_ReadReg(R1)  returns 0x20000518 (0000ms, 1193ms total)
T1AB0 11890:605 JLINK_ReadReg(R2)  returns 0x00000000 (0000ms, 1193ms total)
T1AB0 11890:605 JLINK_ReadReg(R3)  returns 0x08004669 (0000ms, 1193ms total)
T1AB0 11890:605 JLINK_ReadReg(R4)  returns 0x08004778 (0000ms, 1193ms total)
T1AB0 11890:605 JLINK_ReadReg(R5)  returns 0x08004778 (0000ms, 1193ms total)
T1AB0 11890:605 JLINK_ReadReg(R6)  returns 0x00000000 (0000ms, 1193ms total)
T1AB0 11890:605 JLINK_ReadReg(R7)  returns 0x00000000 (0000ms, 1193ms total)
T1AB0 11890:605 JLINK_ReadReg(R8)  returns 0x00000000 (0000ms, 1193ms total)
T1AB0 11890:605 JLINK_ReadReg(R9)  returns 0x00000000 (0000ms, 1193ms total)
T1AB0 11890:605 JLINK_ReadReg(R10)  returns 0x00000000 (0000ms, 1193ms total)
T1AB0 11890:605 JLINK_ReadReg(R11)  returns 0x00000000 (0000ms, 1193ms total)
T1AB0 11890:605 JLINK_ReadReg(R12)  returns 0x00000000 (0000ms, 1193ms total)
T1AB0 11890:605 JLINK_ReadReg(R13 (SP))  returns 0x20000518 (0001ms, 1194ms total)
T1AB0 11890:606 JLINK_ReadReg(R14)  returns 0x0800042D (0000ms, 1194ms total)
T1AB0 11890:606 JLINK_ReadReg(R15 (PC))  returns 0x080029FC (0000ms, 1194ms total)
T1AB0 11890:606 JLINK_ReadReg(XPSR)  returns 0x61000000 (0000ms, 1194ms total)
T1AB0 11890:606 JLINK_ReadReg(MSP)  returns 0x20000518 (0000ms, 1194ms total)
T1AB0 11890:606 JLINK_ReadReg(PSP)  returns 0x00000000 (0000ms, 1194ms total)
T1AB0 11890:606 JLINK_ReadReg(CFBP)  returns 0x00000000 (0000ms, 1194ms total)
T1AB0 11890:606 JLINK_ReadReg(FPSCR)  returns 0x00000000 (0000ms, 1194ms total)
T1AB0 11890:606 JLINK_ReadReg(FPS0)  returns 0x00000000 (0000ms, 1194ms total)
T1AB0 11890:606 JLINK_ReadReg(FPS1)  returns 0x00000000 (0000ms, 1194ms total)
T1AB0 11890:606 JLINK_ReadReg(FPS2)  returns 0x00000000 (0000ms, 1194ms total)
T1AB0 11890:606 JLINK_ReadReg(FPS3)  returns 0x00000000 (0000ms, 1194ms total)
T1AB0 11890:606 JLINK_ReadReg(FPS4)  returns 0x00000000 (0000ms, 1194ms total)
T1AB0 11890:606 JLINK_ReadReg(FPS5)  returns 0x00000000 (0000ms, 1194ms total)
T1AB0 11890:606 JLINK_ReadReg(FPS6)  returns 0x00000000 (0000ms, 1194ms total)
T1AB0 11890:606 JLINK_ReadReg(FPS7)  returns 0x00000000 (0000ms, 1194ms total)
T1AB0 11890:606 JLINK_ReadReg(FPS8)  returns 0x00000000 (0000ms, 1194ms total)
T1AB0 11890:606 JLINK_ReadReg(FPS9)  returns 0x00000000 (0000ms, 1194ms total)
T1AB0 11890:606 JLINK_ReadReg(FPS10)  returns 0x00000000 (0000ms, 1194ms total)
T1AB0 11890:606 JLINK_ReadReg(FPS11)  returns 0x00000000 (0000ms, 1194ms total)
T1AB0 11890:606 JLINK_ReadReg(FPS12)  returns 0x00000000 (0000ms, 1194ms total)
T1AB0 11890:606 JLINK_ReadReg(FPS13)  returns 0x00000000 (0000ms, 1194ms total)
T1AB0 11890:606 JLINK_ReadReg(FPS14)  returns 0x00000000 (0000ms, 1194ms total)
T1AB0 11890:606 JLINK_ReadReg(FPS15)  returns 0x00000000 (0000ms, 1194ms total)
T1AB0 11890:606 JLINK_ReadReg(FPS16)  returns 0x00000000 (0000ms, 1194ms total)
T1AB0 11890:606 JLINK_ReadReg(FPS17)  returns 0x00000000 (0000ms, 1194ms total)
T1AB0 11890:606 JLINK_ReadReg(FPS18)  returns 0x00000000 (0000ms, 1194ms total)
T1AB0 11890:606 JLINK_ReadReg(FPS19)  returns 0x00000000 (0000ms, 1194ms total)
T1AB0 11890:606 JLINK_ReadReg(FPS20)  returns 0x00000000 (0000ms, 1194ms total)
T1AB0 11890:606 JLINK_ReadReg(FPS21)  returns 0x00000000 (0000ms, 1194ms total)
T1AB0 11890:606 JLINK_ReadReg(FPS22)  returns 0x00000000 (0000ms, 1194ms total)
T1AB0 11890:606 JLINK_ReadReg(FPS23)  returns 0x00000000 (0000ms, 1194ms total)
T1AB0 11890:606 JLINK_ReadReg(FPS24)  returns 0x00000000 (0000ms, 1194ms total)
T1AB0 11890:606 JLINK_ReadReg(FPS25)  returns 0x00000000 (0000ms, 1194ms total)
T1AB0 11890:606 JLINK_ReadReg(FPS26)  returns 0x00000000 (0000ms, 1194ms total)
T1AB0 11890:606 JLINK_ReadReg(FPS27)  returns 0x00000000 (0000ms, 1194ms total)
T1AB0 11890:606 JLINK_ReadReg(FPS28)  returns 0x00000000 (0000ms, 1194ms total)
T1AB0 11890:606 JLINK_ReadReg(FPS29)  returns 0x00000000 (0000ms, 1194ms total)
T1AB0 11890:606 JLINK_ReadReg(FPS30)  returns 0x00000000 (0000ms, 1194ms total)
T1AB0 11890:606 JLINK_ReadReg(FPS31)  returns 0x00000000 (0000ms, 1194ms total)
T09B4 11890:610 JLINK_ReadMemU32(0xE0001004, 0x0001 Items, ...) - Data: 7C 1B 00 00  returns 0x01 (0000ms, 1194ms total)
T09B4 11890:619 JLINK_ReadMemEx(0x080029FA, 0x0002 Bytes, ..., Flags = 0x02000000) -- CPU_ReadMem(64 bytes @ 0x080029C0) -- Updating C cache (64 bytes @ 0x080029C0) -- Read from C cache (2 bytes @ 0x080029FA) - Data: 10 BD  returns 0x02 (0001ms, 1195ms total)
T09B4 11890:620 JLINK_ReadMemEx(0x080029FC, 0x003C Bytes, ..., Flags = 0x02000000) -- CPU_ReadMem(64 bytes @ 0x08002A00) -- Updating C cache (64 bytes @ 0x08002A00) -- Read from C cache (60 bytes @ 0x080029FC) - Data: 10 B5 16 48 00 68 4F F4 7A 71 B0 FB F1 F4 60 1E ...  returns 0x3C (0001ms, 1196ms total)
T09B4 11890:749 JLINK_ReadMemEx(0x08002858, 0x003C Bytes, ..., Flags = 0x02000000) -- CPU_ReadMem(128 bytes @ 0x08002840) -- Updating C cache (128 bytes @ 0x08002840) -- Read from C cache (60 bytes @ 0x08002858) - Data: 06 48 80 47 06 48 00 47 FE E7 FE E7 FE E7 FE E7 ...  returns 0x3C (0001ms, 1197ms total)
T1AB0 11892:037 JLINK_ReadMemEx(0x080029FC, 0x0002 Bytes, ..., Flags = 0x02000000) -- Read from C cache (2 bytes @ 0x080029FC) - Data: 10 B5  returns 0x02 (0000ms, 1197ms total)
T1AB0 11892:037 JLINK_Step() -- Read from C cache (2 bytes @ 0x080029FC) -- CPU_WriteMem(8 bytes @ 0x20000510) -- Simulated  returns 0x00 (0001ms, 1198ms total)
T1AB0 11892:038 JLINK_ReadReg(R15 (PC))  returns 0x080029FE (0000ms, 1198ms total)
T1AB0 11892:038 JLINK_ReadReg(XPSR)  returns 0x61000000 (0000ms, 1198ms total)
T1AB0 11892:038 JLINK_ReadReg(R0)  returns 0x08000429 (0000ms, 1198ms total)
T1AB0 11892:038 JLINK_ReadReg(R1)  returns 0x20000518 (0000ms, 1198ms total)
T1AB0 11892:038 JLINK_ReadReg(R2)  returns 0x00000000 (0000ms, 1198ms total)
T1AB0 11892:038 JLINK_ReadReg(R3)  returns 0x08004669 (0000ms, 1198ms total)
T1AB0 11892:038 JLINK_ReadReg(R4)  returns 0x08004778 (0000ms, 1198ms total)
T1AB0 11892:038 JLINK_ReadReg(R5)  returns 0x08004778 (0000ms, 1198ms total)
T1AB0 11892:038 JLINK_ReadReg(R6)  returns 0x00000000 (0000ms, 1198ms total)
T1AB0 11892:038 JLINK_ReadReg(R7)  returns 0x00000000 (0000ms, 1198ms total)
T1AB0 11892:038 JLINK_ReadReg(R8)  returns 0x00000000 (0000ms, 1198ms total)
T1AB0 11892:038 JLINK_ReadReg(R9)  returns 0x00000000 (0000ms, 1198ms total)
T1AB0 11892:038 JLINK_ReadReg(R10)  returns 0x00000000 (0000ms, 1198ms total)
T1AB0 11892:038 JLINK_ReadReg(R11)  returns 0x00000000 (0000ms, 1198ms total)
T1AB0 11892:038 JLINK_ReadReg(R12)  returns 0x00000000 (0000ms, 1198ms total)
T1AB0 11892:038 JLINK_ReadReg(R13 (SP))  returns 0x20000510 (0000ms, 1198ms total)
T1AB0 11892:038 JLINK_ReadReg(R14)  returns 0x0800042D (0000ms, 1198ms total)
T1AB0 11892:038 JLINK_ReadReg(R15 (PC))  returns 0x080029FE (0000ms, 1198ms total)
T1AB0 11892:038 JLINK_ReadReg(XPSR)  returns 0x61000000 (0000ms, 1198ms total)
T1AB0 11892:038 JLINK_ReadReg(MSP)  returns 0x20000510 (0000ms, 1198ms total)
T1AB0 11892:038 JLINK_ReadReg(PSP)  returns 0x00000000 (0000ms, 1198ms total)
T1AB0 11892:038 JLINK_ReadReg(CFBP)  returns 0x00000000 (0000ms, 1198ms total)
T1AB0 11892:038 JLINK_ReadReg(FPSCR)  returns 0x00000000 (0000ms, 1198ms total)
T1AB0 11892:038 JLINK_ReadReg(FPS0)  returns 0x00000000 (0000ms, 1198ms total)
T1AB0 11892:038 JLINK_ReadReg(FPS1)  returns 0x00000000 (0000ms, 1198ms total)
T1AB0 11892:038 JLINK_ReadReg(FPS2)  returns 0x00000000 (0000ms, 1198ms total)
T1AB0 11892:038 JLINK_ReadReg(FPS3)  returns 0x00000000 (0000ms, 1198ms total)
T1AB0 11892:038 JLINK_ReadReg(FPS4)  returns 0x00000000 (0000ms, 1198ms total)
T1AB0 11892:038 JLINK_ReadReg(FPS5)  returns 0x00000000 (0000ms, 1198ms total)
T1AB0 11892:038 JLINK_ReadReg(FPS6)  returns 0x00000000 (0000ms, 1198ms total)
T1AB0 11892:038 JLINK_ReadReg(FPS7)  returns 0x00000000 (0000ms, 1198ms total)
T1AB0 11892:038 JLINK_ReadReg(FPS8)  returns 0x00000000 (0000ms, 1198ms total)
T1AB0 11892:038 JLINK_ReadReg(FPS9)  returns 0x00000000 (0000ms, 1198ms total)
T1AB0 11892:038 JLINK_ReadReg(FPS10)  returns 0x00000000 (0000ms, 1198ms total)
T1AB0 11892:038 JLINK_ReadReg(FPS11)  returns 0x00000000 (0000ms, 1198ms total)
T1AB0 11892:038 JLINK_ReadReg(FPS12)  returns 0x00000000 (0000ms, 1198ms total)
T1AB0 11892:038 JLINK_ReadReg(FPS13)  returns 0x00000000 (0000ms, 1198ms total)
T1AB0 11892:038 JLINK_ReadReg(FPS14)  returns 0x00000000 (0000ms, 1198ms total)
T1AB0 11892:039 JLINK_ReadReg(FPS15)  returns 0x00000000 (0000ms, 1199ms total)
T1AB0 11892:039 JLINK_ReadReg(FPS16)  returns 0x00000000 (0000ms, 1199ms total)
T1AB0 11892:039 JLINK_ReadReg(FPS17)  returns 0x00000000 (0000ms, 1199ms total)
T1AB0 11892:039 JLINK_ReadReg(FPS18)  returns 0x00000000 (0000ms, 1199ms total)
T1AB0 11892:039 JLINK_ReadReg(FPS19)  returns 0x00000000 (0000ms, 1199ms total)
T1AB0 11892:039 JLINK_ReadReg(FPS20)  returns 0x00000000 (0000ms, 1199ms total)
T1AB0 11892:039 JLINK_ReadReg(FPS21)  returns 0x00000000 (0000ms, 1199ms total)
T1AB0 11892:039 JLINK_ReadReg(FPS22)  returns 0x00000000 (0000ms, 1199ms total)
T1AB0 11892:039 JLINK_ReadReg(FPS23)  returns 0x00000000 (0000ms, 1199ms total)
T1AB0 11892:039 JLINK_ReadReg(FPS24)  returns 0x00000000 (0000ms, 1199ms total)
T1AB0 11892:039 JLINK_ReadReg(FPS25)  returns 0x00000000 (0000ms, 1199ms total)
T1AB0 11892:039 JLINK_ReadReg(FPS26)  returns 0x00000000 (0000ms, 1199ms total)
T1AB0 11892:039 JLINK_ReadReg(FPS27)  returns 0x00000000 (0000ms, 1199ms total)
T1AB0 11892:039 JLINK_ReadReg(FPS28)  returns 0x00000000 (0000ms, 1199ms total)
T1AB0 11892:039 JLINK_ReadReg(FPS29)  returns 0x00000000 (0000ms, 1199ms total)
T1AB0 11892:039 JLINK_ReadReg(FPS30)  returns 0x00000000 (0000ms, 1199ms total)
T1AB0 11892:039 JLINK_ReadReg(FPS31)  returns 0x00000000 (0000ms, 1199ms total)
T09B4 11892:039 JLINK_ReadMemEx(0x20000514, 0x0004 Bytes, ..., Flags = 0x02000000) -- CPU_ReadMem(64 bytes @ 0x20000500) -- Updating C cache (64 bytes @ 0x20000500) -- Read from C cache (4 bytes @ 0x20000514) - Data: 2D 04 00 08  returns 0x04 (0001ms, 1200ms total)
T09B4 11892:040 JLINK_ReadMemEx(0x20000510, 0x0004 Bytes, ..., Flags = 0x02000000) -- Read from C cache (4 bytes @ 0x20000510) - Data: 78 47 00 08  returns 0x04 (0000ms, 1200ms total)
T09B4 11892:040 JLINK_ReadMemU32(0xE0001004, 0x0001 Items, ...) - Data: 7F 1B 00 00  returns 0x01 (0000ms, 1200ms total)
T09B4 11892:045 JLINK_ReadMemEx(0x080029FC, 0x003C Bytes, ..., Flags = 0x02000000) -- Read from C cache (60 bytes @ 0x080029FC) - Data: 10 B5 16 48 00 68 4F F4 7A 71 B0 FB F1 F4 60 1E ...  returns 0x3C (0001ms, 1201ms total)
T1AB0 11892:450 JLINK_ReadMemEx(0x080029FE, 0x0002 Bytes, ..., Flags = 0x02000000) -- Read from C cache (2 bytes @ 0x080029FE) - Data: 16 48  returns 0x02 (0000ms, 1201ms total)
T1AB0 11892:450 JLINK_Step() -- Read from C cache (2 bytes @ 0x080029FE) -- CPU_ReadMem(64 bytes @ 0x08002A40) -- Updating C cache (64 bytes @ 0x08002A40) -- Read from C cache (4 bytes @ 0x08002A58) -- Simulated  returns 0x00 (0001ms, 1202ms total)
T1AB0 11892:451 JLINK_ReadReg(R15 (PC))  returns 0x08002A00 (0000ms, 1202ms total)
T1AB0 11892:451 JLINK_ReadReg(XPSR)  returns 0x61000000 (0000ms, 1202ms total)
T1AB0 11892:451 JLINK_Step() -- Read from C cache (2 bytes @ 0x08002A00) -- CPU_ReadMem(64 bytes @ 0x20000000) -- Updating C cache (64 bytes @ 0x20000000) -- Read from C cache (4 bytes @ 0x20000000) -- Simulated  returns 0x00 (0001ms, 1203ms total)
T1AB0 11892:452 JLINK_ReadReg(R15 (PC))  returns 0x08002A02 (0000ms, 1203ms total)
T1AB0 11892:452 JLINK_ReadReg(XPSR)  returns 0x61000000 (0000ms, 1203ms total)
T1AB0 11892:452 JLINK_Step() -- Read from C cache (2 bytes @ 0x08002A02) -- Read from C cache (2 bytes @ 0x08002A04) -- Simulated  returns 0x00 (0000ms, 1203ms total)
T1AB0 11892:452 JLINK_ReadReg(R15 (PC))  returns 0x08002A06 (0000ms, 1203ms total)
T1AB0 11892:452 JLINK_ReadReg(XPSR)  returns 0x61000000 (0000ms, 1203ms total)
T1AB0 11892:452 JLINK_ReadMemEx(0x08002A04, 0x003C Bytes, ..., Flags = 0x02000000) -- Read from C cache (60 bytes @ 0x08002A04) - Data: 7A 71 B0 FB F1 F4 60 1E B0 F1 80 7F 00 D3 0F E0 ...  returns 0x3C (0000ms, 1203ms total)
T1AB0 11892:452 JLINK_ReadMemEx(0x08002A04, 0x0002 Bytes, ..., Flags = 0x02000000) -- Read from C cache (2 bytes @ 0x08002A04) - Data: 7A 71  returns 0x02 (0000ms, 1203ms total)
T1AB0 11892:452 JLINK_ReadMemEx(0x08002A06, 0x0002 Bytes, ..., Flags = 0x02000000) -- Read from C cache (2 bytes @ 0x08002A06) - Data: B0 FB  returns 0x02 (0000ms, 1203ms total)
T1AB0 11892:452 JLINK_Step() -- Read from C cache (2 bytes @ 0x08002A06) -- Read from C cache (2 bytes @ 0x08002A08) -- Not simulated -- CPU_WriteMem(4 bytes @ 0xE0002008) -- CPU_WriteMem(4 bytes @ 0xE000200C) -- CPU_WriteMem(4 bytes @ 0xE0001004)  returns 0x00 (0004ms, 1207ms total)
T1AB0 11892:456 JLINK_ReadReg(R15 (PC))  returns 0x08002A0A (0000ms, 1207ms total)
T1AB0 11892:456 JLINK_ReadReg(XPSR)  returns 0x61000000 (0000ms, 1207ms total)
T1AB0 11892:456 JLINK_ReadReg(R0)  returns 0x0A037A00 (0000ms, 1207ms total)
T1AB0 11892:456 JLINK_ReadReg(R1)  returns 0x000003E8 (0000ms, 1207ms total)
T1AB0 11892:456 JLINK_ReadReg(R2)  returns 0x00000000 (0000ms, 1207ms total)
T1AB0 11892:456 JLINK_ReadReg(R3)  returns 0x08004669 (0000ms, 1207ms total)
T1AB0 11892:456 JLINK_ReadReg(R4)  returns 0x00029040 (0000ms, 1207ms total)
T1AB0 11892:456 JLINK_ReadReg(R5)  returns 0x08004778 (0000ms, 1207ms total)
T1AB0 11892:456 JLINK_ReadReg(R6)  returns 0x00000000 (0000ms, 1207ms total)
T1AB0 11892:456 JLINK_ReadReg(R7)  returns 0x00000000 (0000ms, 1207ms total)
T1AB0 11892:456 JLINK_ReadReg(R8)  returns 0x00000000 (0000ms, 1207ms total)
T1AB0 11892:456 JLINK_ReadReg(R9)  returns 0x00000000 (0000ms, 1207ms total)
T1AB0 11892:456 JLINK_ReadReg(R10)  returns 0x00000000 (0000ms, 1207ms total)
T1AB0 11892:456 JLINK_ReadReg(R11)  returns 0x00000000 (0001ms, 1208ms total)
T1AB0 11892:457 JLINK_ReadReg(R12)  returns 0x00000000 (0000ms, 1208ms total)
T1AB0 11892:457 JLINK_ReadReg(R13 (SP))  returns 0x20000510 (0000ms, 1208ms total)
T1AB0 11892:457 JLINK_ReadReg(R14)  returns 0x0800042D (0000ms, 1208ms total)
T1AB0 11892:457 JLINK_ReadReg(R15 (PC))  returns 0x08002A0A (0000ms, 1208ms total)
T1AB0 11892:457 JLINK_ReadReg(XPSR)  returns 0x61000000 (0000ms, 1208ms total)
T1AB0 11892:457 JLINK_ReadReg(MSP)  returns 0x20000510 (0000ms, 1208ms total)
T1AB0 11892:457 JLINK_ReadReg(PSP)  returns 0x00000000 (0000ms, 1208ms total)
T1AB0 11892:457 JLINK_ReadReg(CFBP)  returns 0x00000000 (0000ms, 1208ms total)
T1AB0 11892:457 JLINK_ReadReg(FPSCR)  returns 0x00000000 (0003ms, 1211ms total)
T1AB0 11892:460 JLINK_ReadReg(FPS0)  returns 0x00000000 (0000ms, 1211ms total)
T1AB0 11892:460 JLINK_ReadReg(FPS1)  returns 0x00000000 (0000ms, 1211ms total)
T1AB0 11892:460 JLINK_ReadReg(FPS2)  returns 0x00000000 (0000ms, 1211ms total)
T1AB0 11892:460 JLINK_ReadReg(FPS3)  returns 0x00000000 (0000ms, 1211ms total)
T1AB0 11892:460 JLINK_ReadReg(FPS4)  returns 0x00000000 (0000ms, 1211ms total)
T1AB0 11892:460 JLINK_ReadReg(FPS5)  returns 0x00000000 (0000ms, 1211ms total)
T1AB0 11892:460 JLINK_ReadReg(FPS6)  returns 0x00000000 (0000ms, 1211ms total)
T1AB0 11892:460 JLINK_ReadReg(FPS7)  returns 0x00000000 (0000ms, 1211ms total)
T1AB0 11892:460 JLINK_ReadReg(FPS8)  returns 0x00000000 (0000ms, 1211ms total)
T1AB0 11892:460 JLINK_ReadReg(FPS9)  returns 0x00000000 (0000ms, 1211ms total)
T1AB0 11892:460 JLINK_ReadReg(FPS10)  returns 0x00000000 (0000ms, 1211ms total)
T1AB0 11892:460 JLINK_ReadReg(FPS11)  returns 0x00000000 (0000ms, 1211ms total)
T1AB0 11892:460 JLINK_ReadReg(FPS12)  returns 0x00000000 (0000ms, 1211ms total)
T1AB0 11892:460 JLINK_ReadReg(FPS13)  returns 0x00000000 (0000ms, 1211ms total)
T1AB0 11892:460 JLINK_ReadReg(FPS14)  returns 0x00000000 (0000ms, 1211ms total)
T1AB0 11892:460 JLINK_ReadReg(FPS15)  returns 0x00000000 (0000ms, 1211ms total)
T1AB0 11892:460 JLINK_ReadReg(FPS16)  returns 0x00000000 (0000ms, 1211ms total)
T1AB0 11892:460 JLINK_ReadReg(FPS17)  returns 0x00000000 (0000ms, 1211ms total)
T1AB0 11892:460 JLINK_ReadReg(FPS18)  returns 0x00000000 (0000ms, 1211ms total)
T1AB0 11892:460 JLINK_ReadReg(FPS19)  returns 0x00000000 (0000ms, 1211ms total)
T1AB0 11892:460 JLINK_ReadReg(FPS20)  returns 0x00000000 (0000ms, 1211ms total)
T1AB0 11892:460 JLINK_ReadReg(FPS21)  returns 0x00000000 (0000ms, 1211ms total)
T1AB0 11892:460 JLINK_ReadReg(FPS22)  returns 0x00000000 (0000ms, 1211ms total)
T1AB0 11892:460 JLINK_ReadReg(FPS23)  returns 0x00000000 (0000ms, 1211ms total)
T1AB0 11892:460 JLINK_ReadReg(FPS24)  returns 0x00000000 (0000ms, 1211ms total)
T1AB0 11892:460 JLINK_ReadReg(FPS25)  returns 0x00000000 (0000ms, 1211ms total)
T1AB0 11892:460 JLINK_ReadReg(FPS26)  returns 0x00000000 (0000ms, 1211ms total)
T1AB0 11892:460 JLINK_ReadReg(FPS27)  returns 0x00000000 (0000ms, 1211ms total)
T1AB0 11892:460 JLINK_ReadReg(FPS28)  returns 0x00000000 (0000ms, 1211ms total)
T1AB0 11892:460 JLINK_ReadReg(FPS29)  returns 0x00000000 (0000ms, 1211ms total)
T1AB0 11892:460 JLINK_ReadReg(FPS30)  returns 0x00000000 (0000ms, 1211ms total)
T1AB0 11892:460 JLINK_ReadReg(FPS31)  returns 0x00000000 (0000ms, 1211ms total)
T09B4 11892:461 JLINK_ReadMemEx(0x20000514, 0x0004 Bytes, ..., Flags = 0x02000000) -- CPU_ReadMem(64 bytes @ 0x20000500) -- Updating C cache (64 bytes @ 0x20000500) -- Read from C cache (4 bytes @ 0x20000514) - Data: 2D 04 00 08  returns 0x04 (0000ms, 1211ms total)
T09B4 11892:461 JLINK_ReadMemEx(0x20000510, 0x0004 Bytes, ..., Flags = 0x02000000) -- Read from C cache (4 bytes @ 0x20000510) - Data: 78 47 00 08  returns 0x04 (0001ms, 1212ms total)
T09B4 11892:464 JLINK_ReadMemEx(0x00000000, 0x0004 Bytes, ..., Flags = 0x02000000) -- CPU_ReadMem(4 bytes @ 0x00000004) -- CPU_ReadMem(64 bytes @ 0x08000000) -- Updating C cache (64 bytes @ 0x08000000) -- Read from C cache (4 bytes @ 0x08000000) - Data: 18 05 00 20  returns 0x04 (0009ms, 1221ms total)
T09B4 11892:478 JLINK_ReadMemU32(0xE0001004, 0x0001 Items, ...) -- CPU_ReadMem(4 bytes @ 0xE0001004) - Data: 8D 1B 00 00  returns 0x01 (0001ms, 1222ms total)
T09B4 11892:482 JLINK_ReadMemEx(0x080029FA, 0x0002 Bytes, ..., Flags = 0x02000000) -- CPU_ReadMem(64 bytes @ 0x080029C0) -- Updating C cache (64 bytes @ 0x080029C0) -- Read from C cache (2 bytes @ 0x080029FA) - Data: 10 BD  returns 0x02 (0001ms, 1223ms total)
T09B4 11892:483 JLINK_ReadMemEx(0x080029FC, 0x003C Bytes, ..., Flags = 0x02000000) -- CPU_ReadMem(64 bytes @ 0x08002A00) -- Updating C cache (64 bytes @ 0x08002A00) -- Read from C cache (60 bytes @ 0x080029FC) - Data: 10 B5 16 48 00 68 4F F4 7A 71 B0 FB F1 F4 60 1E ...  returns 0x3C (0001ms, 1224ms total)
T09B4 11892:806 JLINK_ReadMemEx(0x08002858, 0x003C Bytes, ..., Flags = 0x02000000) -- CPU_ReadMem(128 bytes @ 0x08002840) -- Updating C cache (128 bytes @ 0x08002840) -- Read from C cache (60 bytes @ 0x08002858) - Data: 06 48 80 47 06 48 00 47 FE E7 FE E7 FE E7 FE E7 ...  returns 0x3C (0001ms, 1225ms total)
T1AB0 11892:874 JLINK_ReadMemEx(0x08002A0A, 0x0002 Bytes, ..., Flags = 0x02000000) -- Read from C cache (2 bytes @ 0x08002A0A) - Data: 60 1E  returns 0x02 (0000ms, 1225ms total)
T1AB0 11892:874 JLINK_Step() -- Read from C cache (2 bytes @ 0x08002A0A) -- Simulated  returns 0x00 (0001ms, 1226ms total)
T1AB0 11892:875 JLINK_ReadReg(R15 (PC))  returns 0x08002A0C (0000ms, 1226ms total)
T1AB0 11892:875 JLINK_ReadReg(XPSR)  returns 0x21000000 (0000ms, 1226ms total)
T1AB0 11892:875 JLINK_Step() -- Read from C cache (2 bytes @ 0x08002A0C) -- Read from C cache (2 bytes @ 0x08002A0E) -- Simulated  returns 0x00 (0000ms, 1226ms total)
T1AB0 11892:875 JLINK_ReadReg(R15 (PC))  returns 0x08002A10 (0000ms, 1226ms total)
T1AB0 11892:875 JLINK_ReadReg(XPSR)  returns 0x81000000 (0000ms, 1226ms total)
T1AB0 11892:875 JLINK_ReadMemEx(0x08002A0E, 0x0002 Bytes, ..., Flags = 0x02000000) -- Read from C cache (2 bytes @ 0x08002A0E) - Data: 80 7F  returns 0x02 (0000ms, 1226ms total)
T1AB0 11892:875 JLINK_ReadMemEx(0x08002A10, 0x003C Bytes, ..., Flags = 0x02000000) -- CPU_ReadMem(64 bytes @ 0x08002A40) -- Updating C cache (64 bytes @ 0x08002A40) -- Read from C cache (60 bytes @ 0x08002A10) - Data: 00 D3 0F E0 60 1E 4F F0 E0 21 48 61 0F 21 4F F0 ...  returns 0x3C (0001ms, 1227ms total)
T1AB0 11892:876 JLINK_ReadMemEx(0x08002A10, 0x0002 Bytes, ..., Flags = 0x02000000) -- Read from C cache (2 bytes @ 0x08002A10) - Data: 00 D3  returns 0x02 (0000ms, 1227ms total)
T1AB0 11892:876 JLINK_Step() -- Read from C cache (2 bytes @ 0x08002A10) -- Simulated  returns 0x00 (0000ms, 1227ms total)
T1AB0 11892:876 JLINK_ReadReg(R15 (PC))  returns 0x08002A14 (0000ms, 1227ms total)
T1AB0 11892:876 JLINK_ReadReg(XPSR)  returns 0x81000000 (0000ms, 1227ms total)
T1AB0 11892:876 JLINK_ReadReg(R0)  returns 0x0002903F (0000ms, 1227ms total)
T1AB0 11892:876 JLINK_ReadReg(R1)  returns 0x000003E8 (0000ms, 1227ms total)
T1AB0 11892:876 JLINK_ReadReg(R2)  returns 0x00000000 (0000ms, 1227ms total)
T1AB0 11892:876 JLINK_ReadReg(R3)  returns 0x08004669 (0000ms, 1227ms total)
T1AB0 11892:876 JLINK_ReadReg(R4)  returns 0x00029040 (0000ms, 1227ms total)
T1AB0 11892:876 JLINK_ReadReg(R5)  returns 0x08004778 (0000ms, 1227ms total)
T1AB0 11892:876 JLINK_ReadReg(R6)  returns 0x00000000 (0000ms, 1227ms total)
T1AB0 11892:876 JLINK_ReadReg(R7)  returns 0x00000000 (0000ms, 1227ms total)
T1AB0 11892:876 JLINK_ReadReg(R8)  returns 0x00000000 (0000ms, 1227ms total)
T1AB0 11892:876 JLINK_ReadReg(R9)  returns 0x00000000 (0000ms, 1227ms total)
T1AB0 11892:876 JLINK_ReadReg(R10)  returns 0x00000000 (0000ms, 1227ms total)
T1AB0 11892:876 JLINK_ReadReg(R11)  returns 0x00000000 (0000ms, 1227ms total)
T1AB0 11892:876 JLINK_ReadReg(R12)  returns 0x00000000 (0000ms, 1227ms total)
